
T2294 000:054 SEGGER J-Link V6.10i Log File (0000ms, 0041ms total)
T2294 000:054 DLL Compiled: Oct 25 2016 19:31:51 (0000ms, 0041ms total)
T2294 000:054 Logging started @ 2017-05-13 21:07 (0000ms, 0041ms total)
T2294 000:055 JLINK_SetWarnOutHandler(...) (0000ms, 0042ms total)
T2294 000:055 JLINK_OpenEx(...)
Firmware: J-Link ARM-OB STM32 compiled Aug 22 2012 19:52:04
Hardware: V7.00
S/N: 20160108
Feature(s): RDI,FlashDL,FlashBP,JFlash,GDBFullWEBSRV Webserver running on local port 19080 (0020ms, 0062ms total)
T2294 000:055   returns O.K. (0020ms, 0062ms total)
T2294 000:075 JLINK_SetErrorOutHandler(...) (0000ms, 0062ms total)
T2294 000:075 JLINK_ExecCommand("ProjectFile = "C:\Users\yanlutian\我的毕设\售货机\keil\USER\JLinkSettings.ini"", ...). Device "CORTEX-M4" selected.  returns 0x00 (0092ms, 0154ms total)
T2294 000:168 JLINK_ExecCommand("Device = STM32F407ZGTx", ...). Device "STM32F407ZG" selected.  returns 0x00 (0001ms, 0155ms total)
T2294 000:169 JLINK_ExecCommand("DisableConnectionTimeout", ...).   returns 0x01 (0000ms, 0155ms total)
T2294 000:169 JLINK_GetHardwareVersion()  returns 0x11170 (0000ms, 0155ms total)
T2294 000:169 JLINK_GetDLLVersion()  returns 61009 (0000ms, 0155ms total)
T2294 000:169 JLINK_GetFirmwareString(...) (0000ms, 0155ms total)
T2294 000:170 JLINK_GetDLLVersion()  returns 61009 (0000ms, 0155ms total)
T2294 000:170 JLINK_GetCompileDateTime() (0000ms, 0155ms total)
T2294 000:171 JLINK_GetFirmwareString(...) (0000ms, 0155ms total)
T2294 000:171 JLINK_GetHardwareVersion()  returns 0x11170 (0000ms, 0155ms total)
T2294 000:173 JLINK_TIF_Select(JLINKARM_TIF_SWD)  returns 0x00 (0004ms, 0159ms total)
T2294 000:177 JLINK_SetSpeed(50000) (0001ms, 0160ms total)
T2294 000:178 JLINK_GetId() >0x108 TIF>Found SWD-DP with ID 0x2BA01477 >0x0D TIF> >0x28 TIF> >0x0D TIF> >0x28 TIF> >0x0D TIF> >0x28 TIF> >0x0D TIF> >0x28 TIF> >0x0D TIF> >0x21 TIF> >0x0D TIF> >0x28 TIF> >0x0D TIF> >0x28 TIF> >0x0D TIF> >0x28 TIF> >0x0D TIF> >0x21 TIF> >0x0D TIF> >0x21 TIF> >0x0D TIF> >0x28 TIF> >0x0D TIF> >0x21 TIF> >0x0D TIF> >0x21 TIF> >0x0D TIF> >0x28 TIF> >0x0D TIF> >0x21 TIF> >0x0D TIF> >0x21 TIF> >0x0D TIF> >0x28 TIF> >0x0D TIF> >0x21 TIF> >0x0D TIF> >0x21 TIF> >0x0D TIF>
 >0x28 TIF> >0x0D TIF> >0x21 TIF> >0x0D TIF> >0x21 TIF> >0x0D TIF> >0x28 TIF> >0x0D TIF> >0x21 TIF> >0x0D TIF> >0x21 TIF> >0x108 TIF>Found SWD-DP with ID 0x2BA01477 >0x0D TIF> >0x28 TIF> >0x0D TIF> >0x28 TIF> >0x0D TIF> >0x28 TIF> >0x0D TIF> >0x28 TIF> >0x0D TIF> >0x21 TIF> >0x0D TIF> >0x28 TIF> >0x0D TIF> >0x28 TIF> >0x0D TIF> >0x21 TIF> >0x0D TIF> >0x21 TIF> >0x0D TIF> >0x21 TIF>AP-IDR: 0x24770011, Type: AHB-AP >0x0D TIF> >0x28 TIF> >0x0D TIF> >0x28 TIF> >0x0D TIF> >0x28 TIF> >0x0D TIF> >0x21 TIF>
 >0x0D TIF> >0x21 TIF> >0x0D TIF> >0x28 TIF> >0x0D TIF> >0x21 TIF> >0x0D TIF> >0x21 TIF>Found Cortex-M4 r0p1, Little endian. -- CPU_ReadMem(4 bytes @ 0xE000EDF0) -- CPU_ReadMem(4 bytes @ 0xE0002000)FPUnit: 6 code (BP) slots and 2 literal slots -- CPU_ReadMem(4 bytes @ 0xE000EDFC) -- CPU_ReadMem(4 bytes @ 0xE0001000) -- CPU_WriteMem(4 bytes @ 0xE0001000) -- CPU_ReadMem(4 bytes @ 0xE000ED88) -- CPU_WriteMem(4 bytes @ 0xE000ED88) -- CPU_ReadMem(4 bytes @ 0xE000ED88) -- CPU_WriteMem(4 bytes @ 0xE000ED88)
CoreSight components:ROMTbl 0 @ E00FF000 -- CPU_ReadMem(16 bytes @ 0xE00FF000) -- CPU_ReadMem(16 bytes @ 0xE000EFF0) -- CPU_ReadMem(16 bytes @ 0xE000EFE0)ROMTbl 0 [0]: FFF0F000, CID: B105E00D, PID: 000BB00C SCS -- CPU_ReadMem(16 bytes @ 0xE0001FF0) -- CPU_ReadMem(16 bytes @ 0xE0001FE0)ROMTbl 0 [1]: FFF02000, CID: B105E00D, PID: 003BB002 DWT -- CPU_ReadMem(16 bytes @ 0xE0002FF0) -- CPU_ReadMem(16 bytes @ 0xE0002FE0)ROMTbl 0 [2]: FFF03000, CID: B105E00D, PID: 002BB003 FPB
 -- CPU_ReadMem(16 bytes @ 0xE0000FF0) -- CPU_ReadMem(16 bytes @ 0xE0000FE0)ROMTbl 0 [3]: FFF01000, CID: B105E00D, PID: 003BB001 ITM -- CPU_ReadMem(16 bytes @ 0xE00FF010) -- CPU_ReadMem(16 bytes @ 0xE0040FF0) -- CPU_ReadMem(16 bytes @ 0xE0040FE0)ROMTbl 0 [4]: FFF41000, CID: B105900D, PID: 000BB9A1 TPIU -- CPU_ReadMem(16 bytes @ 0xE0041FF0) -- CPU_ReadMem(16 bytes @ 0xE0041FE0)ROMTbl 0 [5]: FFF42000, CID: B105900D, PID: 000BB925 ETM >0x0D TIF> >0x21 TIF>  returns 0x2BA01477 (0152ms, 0312ms total)
T2294 000:330 JLINK_GetDLLVersion()  returns 61009 (0000ms, 0312ms total)
T2294 000:330 JLINK_CORE_GetFound()  returns 0xE0000FF (0000ms, 0312ms total)
T2294 000:330 JLINK_GetDebugInfo(0x100) -- Value=0xE00FF000  returns 0x00 (0000ms, 0312ms total)
T2294 000:330 JLINK_GetDebugInfo(0x100) -- Value=0xE00FF000  returns 0x00 (0000ms, 0312ms total)
T2294 000:330 JLINK_GetDebugInfo(0x101) -- Value=0xE0041000  returns 0x00 (0000ms, 0312ms total)
T2294 000:330 JLINK_GetDebugInfo(0x102) -- Value=0x00000000  returns 0x00 (0000ms, 0312ms total)
T2294 000:330 JLINK_GetDebugInfo(0x103) -- Value=0xE0040000  returns 0x00 (0000ms, 0312ms total)
T2294 000:330 JLINK_GetDebugInfo(0x104) -- Value=0xE0000000  returns 0x00 (0000ms, 0312ms total)
T2294 000:330 JLINK_GetDebugInfo(0x105) -- Value=0xE0001000  returns 0x00 (0000ms, 0312ms total)
T2294 000:330 JLINK_GetDebugInfo(0x106) -- Value=0xE0002000  returns 0x00 (0000ms, 0312ms total)
T2294 000:330 JLINK_GetDebugInfo(0x107) -- Value=0xE000E000  returns 0x00 (0000ms, 0312ms total)
T2294 000:330 JLINK_GetDebugInfo(0x10C) -- Value=0xE000EDF0  returns 0x00 (0000ms, 0312ms total)
T2294 000:330 JLINK_ReadMemU32(0xE000EF40, 0x0001 Items, ...) -- CPU is running -- CPU_ReadMem(4 bytes @ 0xE000EF40) - Data: 21 00 11 10  returns 0x01 (0002ms, 0314ms total)
T2294 000:332 JLINK_ReadMemU32(0xE000EF44, 0x0001 Items, ...) -- CPU is running -- CPU_ReadMem(4 bytes @ 0xE000EF44) - Data: 11 00 00 11  returns 0x01 (0001ms, 0315ms total)
T2294 000:333 JLINK_ReadMemU32(0xE000ED00, 0x0001 Items, ...) -- CPU is running -- CPU_ReadMem(4 bytes @ 0xE000ED00) - Data: 41 C2 0F 41  returns 0x01 (0001ms, 0316ms total)
T2294 000:334 JLINK_SetResetType(JLINKARM_RESET_TYPE_NORMAL)  returns JLINKARM_RESET_TYPE_NORMAL (0000ms, 0316ms total)
T2294 000:334 JLINK_Reset() -- CPU is running -- CPU_WriteMem(4 bytes @ 0xE000EDF0) -- CPU is running -- CPU_WriteMem(4 bytes @ 0xE000EDFC) >0x35 TIF> -- CPU is running -- CPU_WriteMem(4 bytes @ 0xE000ED0C) -- CPU is running -- CPU_ReadMem(4 bytes @ 0xE000EDF0) -- CPU is running -- CPU_ReadMem(4 bytes @ 0xE000EDF0) -- CPU is running -- CPU_WriteMem(4 bytes @ 0xE000EDF0) -- CPU is running -- CPU_WriteMem(4 bytes @ 0xE000EDFC) -- CPU is running -- CPU_ReadMem(4 bytes @ 0xE000EDF0)
 -- CPU_WriteMem(4 bytes @ 0xE0002000) -- CPU_ReadMem(4 bytes @ 0xE000EDFC) -- CPU_ReadMem(4 bytes @ 0xE0001000) (0025ms, 0341ms total)
T2294 000:359 JLINK_Halt()  returns 0x00 (0000ms, 0341ms total)
T2294 000:359 JLINK_IsHalted()  returns TRUE (0000ms, 0341ms total)
T2294 000:359 JLINK_ReadMemU32(0xE000EDF0, 0x0001 Items, ...) -- CPU_ReadMem(4 bytes @ 0xE000EDF0) - Data: 03 00 03 00  returns 0x01 (0001ms, 0342ms total)
T2294 000:360 JLINK_WriteU32(0xE000EDF0, 0xA05F0003) -- CPU_WriteMem(4 bytes @ 0xE000EDF0)  returns 0x00 (0001ms, 0343ms total)
T2294 000:361 JLINK_WriteU32(0xE000EDFC, 0x01000000) -- CPU_WriteMem(4 bytes @ 0xE000EDFC)  returns 0x00 (0001ms, 0344ms total)
T2294 000:364 JLINK_GetHWStatus(...)  returns 0x00 (0002ms, 0346ms total)
T2294 000:367 JLINK_GetNumBPUnits(Type = 0xFFFFFF00)  returns 0x06 (0000ms, 0346ms total)
T2294 000:367 JLINK_GetNumBPUnits(Type = 0xF0)  returns 0x2000 (0000ms, 0346ms total)
T2294 000:367 JLINK_GetNumWPUnits()  returns 0x04 (0000ms, 0346ms total)
T2294 000:370 JLINK_GetSpeed()  returns 0xFA0 (0000ms, 0346ms total)
T2294 000:371 JLINK_ReadMemU32(0xE000E004, 0x0001 Items, ...) -- CPU_ReadMem(4 bytes @ 0xE000E004) - Data: 02 00 00 00  returns 0x01 (0001ms, 0347ms total)
T2294 000:372 JLINK_ReadMemU32(0xE000E004, 0x0001 Items, ...) -- CPU_ReadMem(4 bytes @ 0xE000E004) - Data: 02 00 00 00  returns 0x01 (0002ms, 0349ms total)
T2294 000:374 JLINK_WriteMem(0xE0001000, 0x001C Bytes, ...) - Data: 01 00 00 00 00 00 00 00 00 00 00 00 00 00 00 00 ... -- CPU_WriteMem(28 bytes @ 0xE0001000)  returns 0x1C (0003ms, 0352ms total)
T2294 000:377 JLINK_ReadMem (0xE0001000, 0x001C Bytes, ...) -- CPU_ReadMem(28 bytes @ 0xE0001000) - Data: 01 00 00 40 00 00 00 00 00 00 00 00 00 00 00 00 ...  returns 0x00 (0002ms, 0354ms total)
T2294 000:379 JLINK_Halt()  returns 0x00 (0000ms, 0354ms total)
T2294 000:379 JLINK_IsHalted()  returns TRUE (0000ms, 0354ms total)
T2294 000:381 JLINK_WriteMem(0x20000000, 0x0180 Bytes, ...) - Data: 00 BE 0A E0 0D 78 2D 06 68 40 08 24 40 00 00 D3 ... -- CPU_WriteMem(384 bytes @ 0x20000000)  returns 0x180 (0006ms, 0360ms total)
T2294 000:387 JLINK_WriteReg(R0, 0x08000000)  returns 0x00 (0000ms, 0360ms total)
T2294 000:387 JLINK_WriteReg(R1, 0x017D7840)  returns 0x00 (0000ms, 0360ms total)
T2294 000:387 JLINK_WriteReg(R2, 0x00000001)  returns 0x00 (0000ms, 0360ms total)
T2294 000:387 JLINK_WriteReg(R3, 0x00000000)  returns 0x00 (0000ms, 0360ms total)
T2294 000:387 JLINK_WriteReg(R4, 0x00000000)  returns 0x00 (0000ms, 0360ms total)
T2294 000:387 JLINK_WriteReg(R5, 0x00000000)  returns 0x00 (0000ms, 0360ms total)
T2294 000:387 JLINK_WriteReg(R6, 0x00000000)  returns 0x00 (0000ms, 0360ms total)
T2294 000:387 JLINK_WriteReg(R7, 0x00000000)  returns 0x00 (0000ms, 0360ms total)
T2294 000:387 JLINK_WriteReg(R8, 0x00000000)  returns 0x00 (0000ms, 0360ms total)
T2294 000:387 JLINK_WriteReg(R9, 0x2000017C)  returns 0x00 (0000ms, 0360ms total)
T2294 000:387 JLINK_WriteReg(R10, 0x00000000)  returns 0x00 (0000ms, 0360ms total)
T2294 000:387 JLINK_WriteReg(R11, 0x00000000)  returns 0x00 (0000ms, 0360ms total)
T2294 000:387 JLINK_WriteReg(R12, 0x00000000)  returns 0x00 (0000ms, 0360ms total)
T2294 000:387 JLINK_WriteReg(R13 (SP), 0x20001000)  returns 0x00 (0000ms, 0360ms total)
T2294 000:387 JLINK_WriteReg(R14, 0x20000001)  returns 0x00 (0000ms, 0360ms total)
T2294 000:387 JLINK_WriteReg(R15 (PC), 0x20000054)  returns 0x00 (0000ms, 0360ms total)
T2294 000:387 JLINK_WriteReg(XPSR, 0x01000000)  returns 0x00 (0000ms, 0360ms total)
T2294 000:387 JLINK_WriteReg(MSP, 0x20001000)  returns 0x00 (0000ms, 0360ms total)
T2294 000:387 JLINK_WriteReg(PSP, 0x20001000)  returns 0x00 (0000ms, 0360ms total)
T2294 000:387 JLINK_WriteReg(CFBP, 0x00000000)  returns 0x00 (0000ms, 0360ms total)
T2294 000:387 JLINK_SetBPEx(Addr = 0x20000000, Type = 0xFFFFFFF2) -- CPU_ReadMem(2 bytes @ 0x20000000)  returns 0x00000001 (0001ms, 0361ms total)
T2294 000:388 JLINK_Go() -- CPU_WriteMem(2 bytes @ 0x20000000) -- CPU_ReadMem(4 bytes @ 0xE0001000) -- CPU_WriteMem(4 bytes @ 0xE0002008) -- CPU_WriteMem(4 bytes @ 0xE000200C) -- CPU_WriteMem(4 bytes @ 0xE0002010) -- CPU_WriteMem(4 bytes @ 0xE0002014) -- CPU_WriteMem(4 bytes @ 0xE0002018) -- CPU_WriteMem(4 bytes @ 0xE000201C) -- CPU_WriteMem(4 bytes @ 0xE0001004) (0013ms, 0374ms total)
T2294 000:401 JLINK_IsHalted() -- CPU_ReadMem(2 bytes @ 0x20000000)  returns TRUE (0005ms, 0379ms total)
T2294 000:406 JLINK_ReadReg(R15 (PC))  returns 0x20000000 (0000ms, 0374ms total)
T2294 000:406 JLINK_ClrBPEx(BPHandle = 0x00000001)  returns 0x00 (0000ms, 0374ms total)
T2294 000:406 JLINK_ReadReg(R0)  returns 0x00000000 (0000ms, 0374ms total)
T2294 000:406 JLINK_WriteReg(R0, 0x08000000)  returns 0x00 (0000ms, 0374ms total)
T2294 000:406 JLINK_WriteReg(R1, 0x00004000)  returns 0x00 (0000ms, 0374ms total)
T2294 000:406 JLINK_WriteReg(R2, 0x000000FF)  returns 0x00 (0000ms, 0374ms total)
T2294 000:406 JLINK_WriteReg(R3, 0x00000000)  returns 0x00 (0000ms, 0374ms total)
T2294 000:406 JLINK_WriteReg(R4, 0x00000000)  returns 0x00 (0000ms, 0374ms total)
T2294 000:406 JLINK_WriteReg(R5, 0x00000000)  returns 0x00 (0000ms, 0374ms total)
T2294 000:406 JLINK_WriteReg(R6, 0x00000000)  returns 0x00 (0000ms, 0374ms total)
T2294 000:406 JLINK_WriteReg(R7, 0x00000000)  returns 0x00 (0000ms, 0374ms total)
T2294 000:406 JLINK_WriteReg(R8, 0x00000000)  returns 0x00 (0000ms, 0374ms total)
T2294 000:406 JLINK_WriteReg(R9, 0x2000017C)  returns 0x00 (0000ms, 0374ms total)
T2294 000:406 JLINK_WriteReg(R10, 0x00000000)  returns 0x00 (0000ms, 0374ms total)
T2294 000:406 JLINK_WriteReg(R11, 0x00000000)  returns 0x00 (0000ms, 0374ms total)
T2294 000:406 JLINK_WriteReg(R12, 0x00000000)  returns 0x00 (0000ms, 0374ms total)
T2294 000:406 JLINK_WriteReg(R13 (SP), 0x20001000)  returns 0x00 (0000ms, 0374ms total)
T2294 000:406 JLINK_WriteReg(R14, 0x20000001)  returns 0x00 (0000ms, 0374ms total)
T2294 000:406 JLINK_WriteReg(R15 (PC), 0x20000020)  returns 0x00 (0000ms, 0374ms total)
T2294 000:406 JLINK_WriteReg(XPSR, 0x01000000)  returns 0x00 (0000ms, 0374ms total)
T2294 000:406 JLINK_WriteReg(MSP, 0x20001000)  returns 0x00 (0000ms, 0374ms total)
T2294 000:406 JLINK_WriteReg(PSP, 0x20001000)  returns 0x00 (0000ms, 0374ms total)
T2294 000:406 JLINK_WriteReg(CFBP, 0x00000000)  returns 0x00 (0000ms, 0374ms total)
T2294 000:406 JLINK_SetBPEx(Addr = 0x20000000, Type = 0xFFFFFFF2)  returns 0x00000002 (0000ms, 0374ms total)
T2294 000:406 JLINK_Go() -- CPU_ReadMem(4 bytes @ 0xE0001000) (0005ms, 0379ms total)
T2294 000:411 JLINK_IsHalted() -- CPU_ReadMem(2 bytes @ 0x20000000)  returns TRUE (0005ms, 0384ms total)
T2294 000:416 JLINK_ReadReg(R15 (PC))  returns 0x20000000 (0000ms, 0379ms total)
T2294 000:416 JLINK_ClrBPEx(BPHandle = 0x00000002)  returns 0x00 (0000ms, 0379ms total)
T2294 000:416 JLINK_ReadReg(R0)  returns 0x00000001 (0000ms, 0379ms total)
T2294 000:416 JLINK_WriteReg(R0, 0x08000000)  returns 0x00 (0000ms, 0379ms total)
T2294 000:416 JLINK_WriteReg(R1, 0x00004000)  returns 0x00 (0000ms, 0379ms total)
T2294 000:416 JLINK_WriteReg(R2, 0x000000FF)  returns 0x00 (0000ms, 0379ms total)
T2294 000:416 JLINK_WriteReg(R3, 0x00000000)  returns 0x00 (0000ms, 0379ms total)
T2294 000:416 JLINK_WriteReg(R4, 0x00000000)  returns 0x00 (0000ms, 0379ms total)
T2294 000:416 JLINK_WriteReg(R5, 0x00000000)  returns 0x00 (0000ms, 0379ms total)
T2294 000:416 JLINK_WriteReg(R6, 0x00000000)  returns 0x00 (0000ms, 0379ms total)
T2294 000:416 JLINK_WriteReg(R7, 0x00000000)  returns 0x00 (0000ms, 0379ms total)
T2294 000:416 JLINK_WriteReg(R8, 0x00000000)  returns 0x00 (0000ms, 0379ms total)
T2294 000:416 JLINK_WriteReg(R9, 0x2000017C)  returns 0x00 (0000ms, 0379ms total)
T2294 000:416 JLINK_WriteReg(R10, 0x00000000)  returns 0x00 (0000ms, 0379ms total)
T2294 000:416 JLINK_WriteReg(R11, 0x00000000)  returns 0x00 (0000ms, 0379ms total)
T2294 000:416 JLINK_WriteReg(R12, 0x00000000)  returns 0x00 (0000ms, 0379ms total)
T2294 000:416 JLINK_WriteReg(R13 (SP), 0x20001000)  returns 0x00 (0000ms, 0379ms total)
T2294 000:416 JLINK_WriteReg(R14, 0x20000001)  returns 0x00 (0000ms, 0379ms total)
T2294 000:416 JLINK_WriteReg(R15 (PC), 0x200000BC)  returns 0x00 (0000ms, 0379ms total)
T2294 000:416 JLINK_WriteReg(XPSR, 0x01000000)  returns 0x00 (0000ms, 0379ms total)
T2294 000:416 JLINK_WriteReg(MSP, 0x20001000)  returns 0x00 (0000ms, 0379ms total)
T2294 000:416 JLINK_WriteReg(PSP, 0x20001000)  returns 0x00 (0000ms, 0379ms total)
T2294 000:416 JLINK_WriteReg(CFBP, 0x00000000)  returns 0x00 (0000ms, 0379ms total)
T2294 000:416 JLINK_SetBPEx(Addr = 0x20000000, Type = 0xFFFFFFF2)  returns 0x00000003 (0000ms, 0379ms total)
T2294 000:416 JLINK_Go() -- CPU_ReadMem(4 bytes @ 0xE0001000) (0005ms, 0384ms total)
T2294 000:421 JLINK_IsHalted()  returns FALSE (0001ms, 0385ms total)
T2294 000:482 JLINK_IsHalted()  returns FALSE (0001ms, 0385ms total)
T2294 000:545 JLINK_IsHalted()  returns FALSE (0001ms, 0385ms total)
T2294 000:607 JLINK_IsHalted()  returns FALSE (0001ms, 0385ms total)
T2294 000:669 JLINK_IsHalted()  returns FALSE (0001ms, 0385ms total)
T2294 000:730 JLINK_IsHalted()  returns FALSE (0001ms, 0385ms total)
T2294 000:792 JLINK_IsHalted() -- CPU_ReadMem(2 bytes @ 0x20000000)  returns TRUE (0006ms, 0390ms total)
T2294 000:798 JLINK_ReadReg(R15 (PC))  returns 0x20000000 (0000ms, 0384ms total)
T2294 000:798 JLINK_ClrBPEx(BPHandle = 0x00000003)  returns 0x00 (0000ms, 0384ms total)
T2294 000:798 JLINK_ReadReg(R0)  returns 0x00000000 (0000ms, 0384ms total)
T2294 000:799 JLINK_WriteReg(R0, 0x08004000)  returns 0x00 (0000ms, 0384ms total)
T2294 000:799 JLINK_WriteReg(R1, 0x00004000)  returns 0x00 (0000ms, 0384ms total)
T2294 000:799 JLINK_WriteReg(R2, 0x000000FF)  returns 0x00 (0000ms, 0384ms total)
T2294 000:799 JLINK_WriteReg(R3, 0x00000000)  returns 0x00 (0000ms, 0384ms total)
T2294 000:799 JLINK_WriteReg(R4, 0x00000000)  returns 0x00 (0000ms, 0384ms total)
T2294 000:799 JLINK_WriteReg(R5, 0x00000000)  returns 0x00 (0000ms, 0384ms total)
T2294 000:799 JLINK_WriteReg(R6, 0x00000000)  returns 0x00 (0000ms, 0384ms total)
T2294 000:799 JLINK_WriteReg(R7, 0x00000000)  returns 0x00 (0000ms, 0384ms total)
T2294 000:799 JLINK_WriteReg(R8, 0x00000000)  returns 0x00 (0000ms, 0384ms total)
T2294 000:799 JLINK_WriteReg(R9, 0x2000017C)  returns 0x00 (0000ms, 0384ms total)
T2294 000:799 JLINK_WriteReg(R10, 0x00000000)  returns 0x00 (0000ms, 0384ms total)
T2294 000:799 JLINK_WriteReg(R11, 0x00000000)  returns 0x00 (0000ms, 0384ms total)
T2294 000:799 JLINK_WriteReg(R12, 0x00000000)  returns 0x00 (0000ms, 0384ms total)
T2294 000:799 JLINK_WriteReg(R13 (SP), 0x20001000)  returns 0x00 (0000ms, 0384ms total)
T2294 000:799 JLINK_WriteReg(R14, 0x20000001)  returns 0x00 (0000ms, 0384ms total)
T2294 000:799 JLINK_WriteReg(R15 (PC), 0x20000020)  returns 0x00 (0000ms, 0384ms total)
T2294 000:799 JLINK_WriteReg(XPSR, 0x01000000)  returns 0x00 (0000ms, 0384ms total)
T2294 000:799 JLINK_WriteReg(MSP, 0x20001000)  returns 0x00 (0000ms, 0384ms total)
T2294 000:799 JLINK_WriteReg(PSP, 0x20001000)  returns 0x00 (0000ms, 0384ms total)
T2294 000:799 JLINK_WriteReg(CFBP, 0x00000000)  returns 0x00 (0000ms, 0384ms total)
T2294 000:799 JLINK_SetBPEx(Addr = 0x20000000, Type = 0xFFFFFFF2)  returns 0x00000004 (0000ms, 0384ms total)
T2294 000:799 JLINK_Go() -- CPU_ReadMem(4 bytes @ 0xE0001000) (0005ms, 0389ms total)
T2294 000:804 JLINK_IsHalted() -- CPU_ReadMem(2 bytes @ 0x20000000)  returns TRUE (0007ms, 0396ms total)
T2294 000:811 JLINK_ReadReg(R15 (PC))  returns 0x20000000 (0000ms, 0389ms total)
T2294 000:811 JLINK_ClrBPEx(BPHandle = 0x00000004)  returns 0x00 (0000ms, 0389ms total)
T2294 000:811 JLINK_ReadReg(R0)  returns 0x00000001 (0000ms, 0389ms total)
T2294 000:811 JLINK_WriteReg(R0, 0x08004000)  returns 0x00 (0000ms, 0389ms total)
T2294 000:811 JLINK_WriteReg(R1, 0x00004000)  returns 0x00 (0000ms, 0389ms total)
T2294 000:811 JLINK_WriteReg(R2, 0x000000FF)  returns 0x00 (0000ms, 0389ms total)
T2294 000:811 JLINK_WriteReg(R3, 0x00000000)  returns 0x00 (0000ms, 0389ms total)
T2294 000:811 JLINK_WriteReg(R4, 0x00000000)  returns 0x00 (0000ms, 0389ms total)
T2294 000:811 JLINK_WriteReg(R5, 0x00000000)  returns 0x00 (0000ms, 0389ms total)
T2294 000:811 JLINK_WriteReg(R6, 0x00000000)  returns 0x00 (0000ms, 0389ms total)
T2294 000:811 JLINK_WriteReg(R7, 0x00000000)  returns 0x00 (0000ms, 0389ms total)
T2294 000:811 JLINK_WriteReg(R8, 0x00000000)  returns 0x00 (0000ms, 0389ms total)
T2294 000:811 JLINK_WriteReg(R9, 0x2000017C)  returns 0x00 (0000ms, 0389ms total)
T2294 000:811 JLINK_WriteReg(R10, 0x00000000)  returns 0x00 (0000ms, 0389ms total)
T2294 000:811 JLINK_WriteReg(R11, 0x00000000)  returns 0x00 (0000ms, 0389ms total)
T2294 000:811 JLINK_WriteReg(R12, 0x00000000)  returns 0x00 (0000ms, 0389ms total)
T2294 000:811 JLINK_WriteReg(R13 (SP), 0x20001000)  returns 0x00 (0000ms, 0389ms total)
T2294 000:811 JLINK_WriteReg(R14, 0x20000001)  returns 0x00 (0000ms, 0389ms total)
T2294 000:811 JLINK_WriteReg(R15 (PC), 0x200000BC)  returns 0x00 (0000ms, 0389ms total)
T2294 000:811 JLINK_WriteReg(XPSR, 0x01000000)  returns 0x00 (0000ms, 0389ms total)
T2294 000:811 JLINK_WriteReg(MSP, 0x20001000)  returns 0x00 (0000ms, 0389ms total)
T2294 000:811 JLINK_WriteReg(PSP, 0x20001000)  returns 0x00 (0000ms, 0389ms total)
T2294 000:811 JLINK_WriteReg(CFBP, 0x00000000)  returns 0x00 (0000ms, 0389ms total)
T2294 000:811 JLINK_SetBPEx(Addr = 0x20000000, Type = 0xFFFFFFF2)  returns 0x00000005 (0000ms, 0389ms total)
T2294 000:811 JLINK_Go() -- CPU_ReadMem(4 bytes @ 0xE0001000) (0004ms, 0393ms total)
T2294 000:815 JLINK_IsHalted()  returns FALSE (0001ms, 0394ms total)
T2294 000:846 JLINK_IsHalted()  returns FALSE (0001ms, 0394ms total)
T2294 000:851 JLINK_IsHalted()  returns FALSE (0001ms, 0394ms total)
T2294 000:853 JLINK_IsHalted()  returns FALSE (0002ms, 0395ms total)
T2294 000:856 JLINK_IsHalted()  returns FALSE (0001ms, 0394ms total)
T2294 000:858 JLINK_IsHalted()  returns FALSE (0002ms, 0395ms total)
T2294 000:861 JLINK_IsHalted()  returns FALSE (0002ms, 0395ms total)
T2294 000:864 JLINK_IsHalted()  returns FALSE (0001ms, 0394ms total)
T2294 000:870 JLINK_IsHalted()  returns FALSE (0001ms, 0394ms total)
T2294 000:872 JLINK_IsHalted()  returns FALSE (0001ms, 0394ms total)
T2294 000:874 JLINK_IsHalted()  returns FALSE (0001ms, 0394ms total)
T2294 000:876 JLINK_IsHalted()  returns FALSE (0001ms, 0394ms total)
T2294 000:878 JLINK_IsHalted()  returns FALSE (0002ms, 0395ms total)
T2294 000:884 JLINK_IsHalted()  returns FALSE (0001ms, 0394ms total)
T2294 000:886 JLINK_IsHalted()  returns FALSE (0001ms, 0394ms total)
T2294 000:888 JLINK_IsHalted()  returns FALSE (0002ms, 0395ms total)
T2294 000:891 JLINK_IsHalted()  returns FALSE (0002ms, 0395ms total)
T2294 000:894 JLINK_IsHalted()  returns FALSE (0001ms, 0394ms total)
T2294 000:896 JLINK_IsHalted()  returns FALSE (0002ms, 0395ms total)
T2294 000:899 JLINK_IsHalted()  returns FALSE (0002ms, 0395ms total)
T2294 000:905 JLINK_IsHalted()  returns FALSE (0001ms, 0394ms total)
T2294 000:907 JLINK_IsHalted()  returns FALSE (0001ms, 0394ms total)
T2294 000:909 JLINK_IsHalted()  returns FALSE (0001ms, 0394ms total)
T2294 000:911 JLINK_IsHalted()  returns FALSE (0001ms, 0394ms total)
T2294 000:917 JLINK_IsHalted()  returns FALSE (0001ms, 0394ms total)
T2294 000:919 JLINK_IsHalted()  returns FALSE (0001ms, 0394ms total)
T2294 000:921 JLINK_IsHalted()  returns FALSE (0001ms, 0394ms total)
T2294 000:923 JLINK_IsHalted()  returns FALSE (0002ms, 0395ms total)
T2294 000:929 JLINK_IsHalted()  returns FALSE (0001ms, 0394ms total)
T2294 000:931 JLINK_IsHalted()  returns FALSE (0001ms, 0394ms total)
T2294 000:933 JLINK_IsHalted()  returns FALSE (0001ms, 0394ms total)
T2294 000:935 JLINK_IsHalted()  returns FALSE (0001ms, 0394ms total)
T2294 000:937 JLINK_IsHalted()  returns FALSE (0000ms, 0393ms total)
T2294 000:938 JLINK_IsHalted()  returns FALSE (0001ms, 0394ms total)
T2294 000:940 JLINK_IsHalted()  returns FALSE (0001ms, 0394ms total)
T2294 000:946 JLINK_IsHalted()  returns FALSE (0001ms, 0394ms total)
T2294 000:948 JLINK_IsHalted()  returns FALSE (0001ms, 0394ms total)
T2294 000:950 JLINK_IsHalted()  returns FALSE (0001ms, 0394ms total)
T2294 000:952 JLINK_IsHalted()  returns FALSE (0001ms, 0394ms total)
T2294 000:954 JLINK_IsHalted()  returns FALSE (0001ms, 0394ms total)
T2294 000:956 JLINK_IsHalted()  returns FALSE (0001ms, 0394ms total)
T2294 000:961 JLINK_IsHalted()  returns FALSE (0001ms, 0394ms total)
T2294 000:963 JLINK_IsHalted()  returns FALSE (0001ms, 0394ms total)
T2294 000:965 JLINK_IsHalted()  returns FALSE (0002ms, 0395ms total)
T2294 000:968 JLINK_IsHalted()  returns FALSE (0001ms, 0394ms total)
T2294 000:970 JLINK_IsHalted()  returns FALSE (0002ms, 0395ms total)
T2294 000:977 JLINK_IsHalted()  returns FALSE (0001ms, 0394ms total)
T2294 000:979 JLINK_IsHalted()  returns FALSE (0001ms, 0394ms total)
T2294 000:981 JLINK_IsHalted()  returns FALSE (0001ms, 0394ms total)
T2294 000:983 JLINK_IsHalted()  returns FALSE (0001ms, 0394ms total)
T2294 000:985 JLINK_IsHalted()  returns FALSE (0001ms, 0394ms total)
T2294 000:987 JLINK_IsHalted()  returns FALSE (0001ms, 0394ms total)
T2294 000:989 JLINK_IsHalted()  returns FALSE (0001ms, 0394ms total)
T2294 000:991 JLINK_IsHalted()  returns FALSE (0001ms, 0394ms total)
T2294 000:996 JLINK_IsHalted()  returns FALSE (0001ms, 0394ms total)
T2294 000:998 JLINK_IsHalted()  returns FALSE (0001ms, 0394ms total)
T2294 001:000 JLINK_IsHalted()  returns FALSE (0001ms, 0394ms total)
T2294 001:006 JLINK_IsHalted()  returns FALSE (0001ms, 0394ms total)
T2294 001:008 JLINK_IsHalted()  returns FALSE (0001ms, 0394ms total)
T2294 001:010 JLINK_IsHalted()  returns FALSE (0001ms, 0394ms total)
T2294 001:012 JLINK_IsHalted()  returns FALSE (0001ms, 0394ms total)
T2294 001:014 JLINK_IsHalted()  returns FALSE (0001ms, 0394ms total)
T2294 001:016 JLINK_IsHalted()  returns FALSE (0001ms, 0394ms total)
T2294 001:018 JLINK_IsHalted()  returns FALSE (0001ms, 0394ms total)
T2294 001:020 JLINK_IsHalted()  returns FALSE (0001ms, 0394ms total)
T2294 001:022 JLINK_IsHalted()  returns FALSE (0001ms, 0394ms total)
T2294 001:028 JLINK_IsHalted()  returns FALSE (0001ms, 0394ms total)
T2294 001:030 JLINK_IsHalted()  returns FALSE (0001ms, 0394ms total)
T2294 001:032 JLINK_IsHalted()  returns FALSE (0002ms, 0395ms total)
T2294 001:035 JLINK_IsHalted()  returns FALSE (0001ms, 0394ms total)
T2294 001:037 JLINK_IsHalted()  returns FALSE (0001ms, 0394ms total)
T2294 001:042 JLINK_IsHalted()  returns FALSE (0001ms, 0394ms total)
T2294 001:044 JLINK_IsHalted()  returns FALSE (0001ms, 0394ms total)
T2294 001:046 JLINK_IsHalted()  returns FALSE (0001ms, 0394ms total)
T2294 001:048 JLINK_IsHalted()  returns FALSE (0001ms, 0394ms total)
T2294 001:053 JLINK_IsHalted()  returns FALSE (0001ms, 0394ms total)
T2294 001:055 JLINK_IsHalted()  returns FALSE (0001ms, 0394ms total)
T2294 001:057 JLINK_IsHalted()  returns FALSE (0001ms, 0394ms total)
T2294 001:059 JLINK_IsHalted()  returns FALSE (0001ms, 0394ms total)
T2294 001:061 JLINK_IsHalted()  returns FALSE (0001ms, 0394ms total)
T2294 001:063 JLINK_IsHalted()  returns FALSE (0001ms, 0394ms total)
T2294 001:069 JLINK_IsHalted()  returns FALSE (0001ms, 0394ms total)
T2294 001:071 JLINK_IsHalted()  returns FALSE (0001ms, 0394ms total)
T2294 001:073 JLINK_IsHalted()  returns FALSE (0001ms, 0394ms total)
T2294 001:075 JLINK_IsHalted()  returns FALSE (0001ms, 0394ms total)
T2294 001:077 JLINK_IsHalted()  returns FALSE (0001ms, 0394ms total)
T2294 001:079 JLINK_IsHalted()  returns FALSE (0000ms, 0393ms total)
T2294 001:080 JLINK_IsHalted()  returns FALSE (0000ms, 0393ms total)
T2294 001:086 JLINK_IsHalted()  returns FALSE (0001ms, 0394ms total)
T2294 001:088 JLINK_IsHalted()  returns FALSE (0001ms, 0394ms total)
T2294 001:090 JLINK_IsHalted()  returns FALSE (0001ms, 0394ms total)
T2294 001:092 JLINK_IsHalted()  returns FALSE (0001ms, 0394ms total)
T2294 001:094 JLINK_IsHalted()  returns FALSE (0001ms, 0394ms total)
T2294 001:100 JLINK_IsHalted()  returns FALSE (0001ms, 0394ms total)
T2294 001:102 JLINK_IsHalted()  returns FALSE (0001ms, 0394ms total)
T2294 001:104 JLINK_IsHalted()  returns FALSE (0001ms, 0394ms total)
T2294 001:106 JLINK_IsHalted()  returns FALSE (0001ms, 0394ms total)
T2294 001:108 JLINK_IsHalted()  returns FALSE (0001ms, 0394ms total)
T2294 001:110 JLINK_IsHalted()  returns FALSE (0001ms, 0394ms total)
T2294 001:115 JLINK_IsHalted()  returns FALSE (0001ms, 0394ms total)
T2294 001:117 JLINK_IsHalted()  returns FALSE (0001ms, 0394ms total)
T2294 001:119 JLINK_IsHalted()  returns FALSE (0001ms, 0394ms total)
T2294 001:121 JLINK_IsHalted()  returns FALSE (0001ms, 0394ms total)
T2294 001:123 JLINK_IsHalted()  returns FALSE (0001ms, 0395ms total)
T2294 001:125 JLINK_IsHalted()  returns FALSE (0001ms, 0395ms total)
T2294 001:131 JLINK_IsHalted()  returns FALSE (0001ms, 0395ms total)
T2294 001:133 JLINK_IsHalted()  returns FALSE (0001ms, 0395ms total)
T2294 001:135 JLINK_IsHalted()  returns FALSE (0001ms, 0395ms total)
T2294 001:137 JLINK_IsHalted()  returns FALSE (0001ms, 0395ms total)
T2294 001:139 JLINK_IsHalted()  returns FALSE (0001ms, 0395ms total)
T2294 001:141 JLINK_IsHalted()  returns FALSE (0001ms, 0395ms total)
T2294 001:143 JLINK_IsHalted()  returns FALSE (0001ms, 0395ms total)
T2294 001:145 JLINK_IsHalted()  returns FALSE (0001ms, 0395ms total)
T2294 001:150 JLINK_IsHalted()  returns FALSE (0001ms, 0395ms total)
T2294 001:152 JLINK_IsHalted()  returns FALSE (0001ms, 0395ms total)
T2294 001:154 JLINK_IsHalted()  returns FALSE (0002ms, 0396ms total)
T2294 001:157 JLINK_IsHalted()  returns FALSE (0001ms, 0395ms total)
T2294 001:162 JLINK_IsHalted()  returns FALSE (0001ms, 0395ms total)
T2294 001:164 JLINK_IsHalted()  returns FALSE (0001ms, 0395ms total)
T2294 001:166 JLINK_IsHalted()  returns FALSE (0001ms, 0395ms total)
T2294 001:168 JLINK_IsHalted()  returns FALSE (0001ms, 0395ms total)
T2294 001:170 JLINK_IsHalted()  returns FALSE (0001ms, 0395ms total)
T2294 001:172 JLINK_IsHalted()  returns FALSE (0002ms, 0396ms total)
T2294 001:175 JLINK_IsHalted()  returns FALSE (0001ms, 0395ms total)
T2294 001:180 JLINK_IsHalted()  returns FALSE (0001ms, 0395ms total)
T2294 001:182 JLINK_IsHalted() -- CPU_ReadMem(2 bytes @ 0x20000000)  returns TRUE (0007ms, 0401ms total)
T2294 001:189 JLINK_ReadReg(R15 (PC))  returns 0x20000000 (0000ms, 0394ms total)
T2294 001:189 JLINK_ClrBPEx(BPHandle = 0x00000005)  returns 0x00 (0000ms, 0394ms total)
T2294 001:189 JLINK_ReadReg(R0)  returns 0x00000000 (0000ms, 0394ms total)
T2294 001:189 JLINK_WriteReg(R0, 0x00000001)  returns 0x00 (0000ms, 0394ms total)
T2294 001:189 JLINK_WriteReg(R1, 0x00004000)  returns 0x00 (0000ms, 0394ms total)
T2294 001:189 JLINK_WriteReg(R2, 0x000000FF)  returns 0x00 (0000ms, 0394ms total)
T2294 001:189 JLINK_WriteReg(R3, 0x00000000)  returns 0x00 (0000ms, 0394ms total)
T2294 001:189 JLINK_WriteReg(R4, 0x00000000)  returns 0x00 (0000ms, 0394ms total)
T2294 001:189 JLINK_WriteReg(R5, 0x00000000)  returns 0x00 (0000ms, 0394ms total)
T2294 001:189 JLINK_WriteReg(R6, 0x00000000)  returns 0x00 (0000ms, 0394ms total)
T2294 001:189 JLINK_WriteReg(R7, 0x00000000)  returns 0x00 (0000ms, 0394ms total)
T2294 001:189 JLINK_WriteReg(R8, 0x00000000)  returns 0x00 (0000ms, 0394ms total)
T2294 001:189 JLINK_WriteReg(R9, 0x2000017C)  returns 0x00 (0000ms, 0394ms total)
T2294 001:189 JLINK_WriteReg(R10, 0x00000000)  returns 0x00 (0000ms, 0394ms total)
T2294 001:189 JLINK_WriteReg(R11, 0x00000000)  returns 0x00 (0000ms, 0394ms total)
T2294 001:189 JLINK_WriteReg(R12, 0x00000000)  returns 0x00 (0000ms, 0394ms total)
T2294 001:189 JLINK_WriteReg(R13 (SP), 0x20001000)  returns 0x00 (0000ms, 0394ms total)
T2294 001:189 JLINK_WriteReg(R14, 0x20000001)  returns 0x00 (0000ms, 0394ms total)
T2294 001:189 JLINK_WriteReg(R15 (PC), 0x20000082)  returns 0x00 (0000ms, 0394ms total)
T2294 001:189 JLINK_WriteReg(XPSR, 0x01000000)  returns 0x00 (0000ms, 0394ms total)
T2294 001:189 JLINK_WriteReg(MSP, 0x20001000)  returns 0x00 (0000ms, 0394ms total)
T2294 001:189 JLINK_WriteReg(PSP, 0x20001000)  returns 0x00 (0000ms, 0394ms total)
T2294 001:189 JLINK_WriteReg(CFBP, 0x00000000)  returns 0x00 (0000ms, 0394ms total)
T2294 001:189 JLINK_SetBPEx(Addr = 0x20000000, Type = 0xFFFFFFF2)  returns 0x00000006 (0000ms, 0394ms total)
T2294 001:189 JLINK_Go() -- CPU_ReadMem(4 bytes @ 0xE0001000) (0005ms, 0399ms total)
T2294 001:194 JLINK_IsHalted() -- CPU_ReadMem(2 bytes @ 0x20000000)  returns TRUE (0005ms, 0404ms total)
T2294 001:199 JLINK_ReadReg(R15 (PC))  returns 0x20000000 (0000ms, 0399ms total)
T2294 001:199 JLINK_ClrBPEx(BPHandle = 0x00000006)  returns 0x00 (0000ms, 0399ms total)
T2294 001:199 JLINK_ReadReg(R0)  returns 0x00000000 (0000ms, 0399ms total)
T2294 001:251 JLINK_WriteMem(0x20000000, 0x0180 Bytes, ...) - Data: 00 BE 0A E0 0D 78 2D 06 68 40 08 24 40 00 00 D3 ... -- CPU_WriteMem(384 bytes @ 0x20000000)  returns 0x180 (0006ms, 0405ms total)
T2294 001:257 JLINK_WriteReg(R0, 0x08000000)  returns 0x00 (0000ms, 0405ms total)
T2294 001:257 JLINK_WriteReg(R1, 0x017D7840)  returns 0x00 (0000ms, 0405ms total)
T2294 001:257 JLINK_WriteReg(R2, 0x00000002)  returns 0x00 (0000ms, 0405ms total)
T2294 001:257 JLINK_WriteReg(R3, 0x00000000)  returns 0x00 (0000ms, 0405ms total)
T2294 001:257 JLINK_WriteReg(R4, 0x00000000)  returns 0x00 (0000ms, 0405ms total)
T2294 001:257 JLINK_WriteReg(R5, 0x00000000)  returns 0x00 (0000ms, 0405ms total)
T2294 001:257 JLINK_WriteReg(R6, 0x00000000)  returns 0x00 (0000ms, 0405ms total)
T2294 001:257 JLINK_WriteReg(R7, 0x00000000)  returns 0x00 (0000ms, 0405ms total)
T2294 001:257 JLINK_WriteReg(R8, 0x00000000)  returns 0x00 (0000ms, 0405ms total)
T2294 001:257 JLINK_WriteReg(R9, 0x2000017C)  returns 0x00 (0000ms, 0405ms total)
T2294 001:257 JLINK_WriteReg(R10, 0x00000000)  returns 0x00 (0000ms, 0405ms total)
T2294 001:257 JLINK_WriteReg(R11, 0x00000000)  returns 0x00 (0000ms, 0405ms total)
T2294 001:257 JLINK_WriteReg(R12, 0x00000000)  returns 0x00 (0000ms, 0405ms total)
T2294 001:257 JLINK_WriteReg(R13 (SP), 0x20001000)  returns 0x00 (0000ms, 0405ms total)
T2294 001:257 JLINK_WriteReg(R14, 0x20000001)  returns 0x00 (0000ms, 0405ms total)
T2294 001:257 JLINK_WriteReg(R15 (PC), 0x20000054)  returns 0x00 (0000ms, 0405ms total)
T2294 001:257 JLINK_WriteReg(XPSR, 0x01000000)  returns 0x00 (0000ms, 0405ms total)
T2294 001:257 JLINK_WriteReg(MSP, 0x20001000)  returns 0x00 (0000ms, 0405ms total)
T2294 001:257 JLINK_WriteReg(PSP, 0x20001000)  returns 0x00 (0000ms, 0405ms total)
T2294 001:257 JLINK_WriteReg(CFBP, 0x00000000)  returns 0x00 (0000ms, 0405ms total)
T2294 001:257 JLINK_SetBPEx(Addr = 0x20000000, Type = 0xFFFFFFF2) -- CPU_ReadMem(2 bytes @ 0x20000000)  returns 0x00000007 (0002ms, 0407ms total)
T2294 001:259 JLINK_Go() -- CPU_WriteMem(2 bytes @ 0x20000000) -- CPU_ReadMem(4 bytes @ 0xE0001000) (0005ms, 0412ms total)
T2294 001:264 JLINK_IsHalted() -- CPU_ReadMem(2 bytes @ 0x20000000)  returns TRUE (0005ms, 0417ms total)
T2294 001:269 JLINK_ReadReg(R15 (PC))  returns 0x20000000 (0000ms, 0412ms total)
T2294 001:269 JLINK_ClrBPEx(BPHandle = 0x00000007)  returns 0x00 (0000ms, 0412ms total)
T2294 001:269 JLINK_ReadReg(R0)  returns 0x00000000 (0000ms, 0412ms total)
T2294 001:269 JLINK_WriteMem(0x20000180, 0x0400 Bytes, ...) - Data: C8 A2 00 20 1D 03 00 08 31 31 00 08 7D 29 00 08 ... -- CPU_WriteMem(1024 bytes @ 0x20000180)  returns 0x400 (0013ms, 0425ms total)
T2294 001:282 JLINK_WriteReg(R0, 0x08000000)  returns 0x00 (0000ms, 0425ms total)
T2294 001:282 JLINK_WriteReg(R1, 0x00000400)  returns 0x00 (0000ms, 0425ms total)
T2294 001:282 JLINK_WriteReg(R2, 0x20000180)  returns 0x00 (0000ms, 0425ms total)
T2294 001:282 JLINK_WriteReg(R3, 0x00000000)  returns 0x00 (0000ms, 0425ms total)
T2294 001:282 JLINK_WriteReg(R4, 0x00000000)  returns 0x00 (0000ms, 0425ms total)
T2294 001:282 JLINK_WriteReg(R5, 0x00000000)  returns 0x00 (0000ms, 0425ms total)
T2294 001:282 JLINK_WriteReg(R6, 0x00000000)  returns 0x00 (0000ms, 0425ms total)
T2294 001:282 JLINK_WriteReg(R7, 0x00000000)  returns 0x00 (0000ms, 0425ms total)
T2294 001:282 JLINK_WriteReg(R8, 0x00000000)  returns 0x00 (0000ms, 0425ms total)
T2294 001:282 JLINK_WriteReg(R9, 0x2000017C)  returns 0x00 (0000ms, 0425ms total)
T2294 001:282 JLINK_WriteReg(R10, 0x00000000)  returns 0x00 (0000ms, 0425ms total)
T2294 001:282 JLINK_WriteReg(R11, 0x00000000)  returns 0x00 (0000ms, 0425ms total)
T2294 001:282 JLINK_WriteReg(R12, 0x00000000)  returns 0x00 (0000ms, 0425ms total)
T2294 001:282 JLINK_WriteReg(R13 (SP), 0x20001000)  returns 0x00 (0000ms, 0425ms total)
T2294 001:282 JLINK_WriteReg(R14, 0x20000001)  returns 0x00 (0000ms, 0425ms total)
T2294 001:282 JLINK_WriteReg(R15 (PC), 0x20000108)  returns 0x00 (0000ms, 0425ms total)
T2294 001:282 JLINK_WriteReg(XPSR, 0x01000000)  returns 0x00 (0000ms, 0425ms total)
T2294 001:282 JLINK_WriteReg(MSP, 0x20001000)  returns 0x00 (0000ms, 0425ms total)
T2294 001:282 JLINK_WriteReg(PSP, 0x20001000)  returns 0x00 (0000ms, 0425ms total)
T2294 001:282 JLINK_WriteReg(CFBP, 0x00000000)  returns 0x00 (0000ms, 0425ms total)
T2294 001:282 JLINK_SetBPEx(Addr = 0x20000000, Type = 0xFFFFFFF2)  returns 0x00000008 (0000ms, 0425ms total)
T2294 001:282 JLINK_Go() -- CPU_ReadMem(4 bytes @ 0xE0001000) (0006ms, 0431ms total)
T2294 001:288 JLINK_IsHalted()  returns FALSE (0002ms, 0433ms total)
T2294 001:297 JLINK_IsHalted() -- CPU_ReadMem(2 bytes @ 0x20000000)  returns TRUE (0005ms, 0436ms total)
T2294 001:302 JLINK_ReadReg(R15 (PC))  returns 0x20000000 (0000ms, 0431ms total)
T2294 001:302 JLINK_ClrBPEx(BPHandle = 0x00000008)  returns 0x00 (0000ms, 0431ms total)
T2294 001:302 JLINK_ReadReg(R0)  returns 0x00000000 (0000ms, 0431ms total)
T2294 001:302 JLINK_WriteMem(0x20000180, 0x0400 Bytes, ...) - Data: 0C 46 05 46 01 2A 05 D0 28 78 80 06 00 D5 EA 69 ... -- CPU_WriteMem(1024 bytes @ 0x20000180)  returns 0x400 (0013ms, 0444ms total)
T2294 001:315 JLINK_WriteReg(R0, 0x08000400)  returns 0x00 (0000ms, 0444ms total)
T2294 001:315 JLINK_WriteReg(R1, 0x00000400)  returns 0x00 (0000ms, 0444ms total)
T2294 001:315 JLINK_WriteReg(R2, 0x20000180)  returns 0x00 (0000ms, 0444ms total)
T2294 001:315 JLINK_WriteReg(R3, 0x00000000)  returns 0x00 (0000ms, 0444ms total)
T2294 001:315 JLINK_WriteReg(R4, 0x00000000)  returns 0x00 (0000ms, 0444ms total)
T2294 001:315 JLINK_WriteReg(R5, 0x00000000)  returns 0x00 (0000ms, 0444ms total)
T2294 001:315 JLINK_WriteReg(R6, 0x00000000)  returns 0x00 (0000ms, 0444ms total)
T2294 001:315 JLINK_WriteReg(R7, 0x00000000)  returns 0x00 (0000ms, 0444ms total)
T2294 001:315 JLINK_WriteReg(R8, 0x00000000)  returns 0x00 (0000ms, 0444ms total)
T2294 001:315 JLINK_WriteReg(R9, 0x2000017C)  returns 0x00 (0000ms, 0444ms total)
T2294 001:315 JLINK_WriteReg(R10, 0x00000000)  returns 0x00 (0000ms, 0444ms total)
T2294 001:315 JLINK_WriteReg(R11, 0x00000000)  returns 0x00 (0000ms, 0444ms total)
T2294 001:315 JLINK_WriteReg(R12, 0x00000000)  returns 0x00 (0000ms, 0444ms total)
T2294 001:315 JLINK_WriteReg(R13 (SP), 0x20001000)  returns 0x00 (0000ms, 0444ms total)
T2294 001:315 JLINK_WriteReg(R14, 0x20000001)  returns 0x00 (0000ms, 0444ms total)
T2294 001:315 JLINK_WriteReg(R15 (PC), 0x20000108)  returns 0x00 (0000ms, 0444ms total)
T2294 001:315 JLINK_WriteReg(XPSR, 0x01000000)  returns 0x00 (0000ms, 0444ms total)
T2294 001:315 JLINK_WriteReg(MSP, 0x20001000)  returns 0x00 (0000ms, 0444ms total)
T2294 001:315 JLINK_WriteReg(PSP, 0x20001000)  returns 0x00 (0000ms, 0444ms total)
T2294 001:315 JLINK_WriteReg(CFBP, 0x00000000)  returns 0x00 (0000ms, 0444ms total)
T2294 001:315 JLINK_SetBPEx(Addr = 0x20000000, Type = 0xFFFFFFF2)  returns 0x00000009 (0000ms, 0444ms total)
T2294 001:315 JLINK_Go() -- CPU_ReadMem(4 bytes @ 0xE0001000) (0004ms, 0448ms total)
T2294 001:319 JLINK_IsHalted()  returns FALSE (0001ms, 0449ms total)
T2294 001:325 JLINK_IsHalted() -- CPU_ReadMem(2 bytes @ 0x20000000)  returns TRUE (0005ms, 0453ms total)
T2294 001:330 JLINK_ReadReg(R15 (PC))  returns 0x20000000 (0000ms, 0448ms total)
T2294 001:330 JLINK_ClrBPEx(BPHandle = 0x00000009)  returns 0x00 (0000ms, 0448ms total)
T2294 001:330 JLINK_ReadReg(R0)  returns 0x00000000 (0000ms, 0448ms total)
T2294 001:330 JLINK_WriteMem(0x20000180, 0x0400 Bytes, ...) - Data: 40 1C 76 1C 20 62 4E 45 F4 DB 20 78 C0 06 0A D5 ... -- CPU_WriteMem(1024 bytes @ 0x20000180)  returns 0x400 (0013ms, 0461ms total)
T2294 001:343 JLINK_WriteReg(R0, 0x08000800)  returns 0x00 (0000ms, 0461ms total)
T2294 001:343 JLINK_WriteReg(R1, 0x00000400)  returns 0x00 (0000ms, 0461ms total)
T2294 001:343 JLINK_WriteReg(R2, 0x20000180)  returns 0x00 (0000ms, 0461ms total)
T2294 001:343 JLINK_WriteReg(R3, 0x00000000)  returns 0x00 (0000ms, 0461ms total)
T2294 001:343 JLINK_WriteReg(R4, 0x00000000)  returns 0x00 (0000ms, 0461ms total)
T2294 001:343 JLINK_WriteReg(R5, 0x00000000)  returns 0x00 (0000ms, 0461ms total)
T2294 001:343 JLINK_WriteReg(R6, 0x00000000)  returns 0x00 (0000ms, 0461ms total)
T2294 001:343 JLINK_WriteReg(R7, 0x00000000)  returns 0x00 (0000ms, 0461ms total)
T2294 001:343 JLINK_WriteReg(R8, 0x00000000)  returns 0x00 (0000ms, 0461ms total)
T2294 001:343 JLINK_WriteReg(R9, 0x2000017C)  returns 0x00 (0000ms, 0461ms total)
T2294 001:343 JLINK_WriteReg(R10, 0x00000000)  returns 0x00 (0000ms, 0461ms total)
T2294 001:343 JLINK_WriteReg(R11, 0x00000000)  returns 0x00 (0000ms, 0461ms total)
T2294 001:343 JLINK_WriteReg(R12, 0x00000000)  returns 0x00 (0000ms, 0461ms total)
T2294 001:343 JLINK_WriteReg(R13 (SP), 0x20001000)  returns 0x00 (0000ms, 0461ms total)
T2294 001:343 JLINK_WriteReg(R14, 0x20000001)  returns 0x00 (0000ms, 0461ms total)
T2294 001:343 JLINK_WriteReg(R15 (PC), 0x20000108)  returns 0x00 (0000ms, 0461ms total)
T2294 001:343 JLINK_WriteReg(XPSR, 0x01000000)  returns 0x00 (0000ms, 0461ms total)
T2294 001:343 JLINK_WriteReg(MSP, 0x20001000)  returns 0x00 (0000ms, 0461ms total)
T2294 001:343 JLINK_WriteReg(PSP, 0x20001000)  returns 0x00 (0000ms, 0461ms total)
T2294 001:343 JLINK_WriteReg(CFBP, 0x00000000)  returns 0x00 (0000ms, 0461ms total)
T2294 001:343 JLINK_SetBPEx(Addr = 0x20000000, Type = 0xFFFFFFF2)  returns 0x0000000A (0000ms, 0461ms total)
T2294 001:343 JLINK_Go() -- CPU_ReadMem(4 bytes @ 0xE0001000) (0005ms, 0466ms total)
T2294 001:348 JLINK_IsHalted()  returns FALSE (0001ms, 0467ms total)
T2294 001:354 JLINK_IsHalted() -- CPU_ReadMem(2 bytes @ 0x20000000)  returns TRUE (0006ms, 0472ms total)
T2294 001:360 JLINK_ReadReg(R15 (PC))  returns 0x20000000 (0000ms, 0466ms total)
T2294 001:360 JLINK_ClrBPEx(BPHandle = 0x0000000A)  returns 0x00 (0000ms, 0466ms total)
T2294 001:360 JLINK_ReadReg(R0)  returns 0x00000000 (0000ms, 0466ms total)
T2294 001:360 JLINK_WriteMem(0x20000180, 0x0400 Bytes, ...) - Data: 00 DD B9 46 0A 98 50 EA 4A 00 0E D0 44 F6 10 50 ... -- CPU_WriteMem(1024 bytes @ 0x20000180)  returns 0x400 (0014ms, 0480ms total)
T2294 001:374 JLINK_WriteReg(R0, 0x08000C00)  returns 0x00 (0000ms, 0480ms total)
T2294 001:374 JLINK_WriteReg(R1, 0x00000400)  returns 0x00 (0000ms, 0480ms total)
T2294 001:374 JLINK_WriteReg(R2, 0x20000180)  returns 0x00 (0000ms, 0480ms total)
T2294 001:374 JLINK_WriteReg(R3, 0x00000000)  returns 0x00 (0000ms, 0480ms total)
T2294 001:374 JLINK_WriteReg(R4, 0x00000000)  returns 0x00 (0000ms, 0480ms total)
T2294 001:374 JLINK_WriteReg(R5, 0x00000000)  returns 0x00 (0000ms, 0480ms total)
T2294 001:374 JLINK_WriteReg(R6, 0x00000000)  returns 0x00 (0000ms, 0480ms total)
T2294 001:374 JLINK_WriteReg(R7, 0x00000000)  returns 0x00 (0000ms, 0480ms total)
T2294 001:374 JLINK_WriteReg(R8, 0x00000000)  returns 0x00 (0000ms, 0480ms total)
T2294 001:374 JLINK_WriteReg(R9, 0x2000017C)  returns 0x00 (0000ms, 0480ms total)
T2294 001:374 JLINK_WriteReg(R10, 0x00000000)  returns 0x00 (0000ms, 0480ms total)
T2294 001:374 JLINK_WriteReg(R11, 0x00000000)  returns 0x00 (0000ms, 0480ms total)
T2294 001:374 JLINK_WriteReg(R12, 0x00000000)  returns 0x00 (0000ms, 0480ms total)
T2294 001:374 JLINK_WriteReg(R13 (SP), 0x20001000)  returns 0x00 (0000ms, 0480ms total)
T2294 001:374 JLINK_WriteReg(R14, 0x20000001)  returns 0x00 (0000ms, 0480ms total)
T2294 001:374 JLINK_WriteReg(R15 (PC), 0x20000108)  returns 0x00 (0000ms, 0480ms total)
T2294 001:374 JLINK_WriteReg(XPSR, 0x01000000)  returns 0x00 (0000ms, 0480ms total)
T2294 001:374 JLINK_WriteReg(MSP, 0x20001000)  returns 0x00 (0000ms, 0480ms total)
T2294 001:374 JLINK_WriteReg(PSP, 0x20001000)  returns 0x00 (0000ms, 0480ms total)
T2294 001:374 JLINK_WriteReg(CFBP, 0x00000000)  returns 0x00 (0000ms, 0480ms total)
T2294 001:374 JLINK_SetBPEx(Addr = 0x20000000, Type = 0xFFFFFFF2)  returns 0x0000000B (0000ms, 0480ms total)
T2294 001:374 JLINK_Go() -- CPU_ReadMem(4 bytes @ 0xE0001000) (0005ms, 0485ms total)
T2294 001:379 JLINK_IsHalted()  returns FALSE (0001ms, 0486ms total)
T2294 001:384 JLINK_IsHalted() -- CPU_ReadMem(2 bytes @ 0x20000000)  returns TRUE (0005ms, 0490ms total)
T2294 001:389 JLINK_ReadReg(R15 (PC))  returns 0x20000000 (0000ms, 0485ms total)
T2294 001:389 JLINK_ClrBPEx(BPHandle = 0x0000000B)  returns 0x00 (0000ms, 0485ms total)
T2294 001:389 JLINK_ReadReg(R0)  returns 0x00000000 (0000ms, 0485ms total)
T2294 001:390 JLINK_WriteMem(0x20000180, 0x0400 Bytes, ...) - Data: 20 21 01 EA C0 03 8D F8 20 30 0B B1 01 20 00 E0 ... -- CPU_WriteMem(1024 bytes @ 0x20000180)  returns 0x400 (0012ms, 0497ms total)
T2294 001:402 JLINK_WriteReg(R0, 0x08001000)  returns 0x00 (0000ms, 0497ms total)
T2294 001:402 JLINK_WriteReg(R1, 0x00000400)  returns 0x00 (0000ms, 0497ms total)
T2294 001:402 JLINK_WriteReg(R2, 0x20000180)  returns 0x00 (0000ms, 0497ms total)
T2294 001:402 JLINK_WriteReg(R3, 0x00000000)  returns 0x00 (0000ms, 0497ms total)
T2294 001:402 JLINK_WriteReg(R4, 0x00000000)  returns 0x00 (0000ms, 0497ms total)
T2294 001:402 JLINK_WriteReg(R5, 0x00000000)  returns 0x00 (0000ms, 0497ms total)
T2294 001:402 JLINK_WriteReg(R6, 0x00000000)  returns 0x00 (0000ms, 0497ms total)
T2294 001:402 JLINK_WriteReg(R7, 0x00000000)  returns 0x00 (0000ms, 0497ms total)
T2294 001:402 JLINK_WriteReg(R8, 0x00000000)  returns 0x00 (0000ms, 0497ms total)
T2294 001:402 JLINK_WriteReg(R9, 0x2000017C)  returns 0x00 (0000ms, 0497ms total)
T2294 001:402 JLINK_WriteReg(R10, 0x00000000)  returns 0x00 (0000ms, 0497ms total)
T2294 001:402 JLINK_WriteReg(R11, 0x00000000)  returns 0x00 (0000ms, 0497ms total)
T2294 001:402 JLINK_WriteReg(R12, 0x00000000)  returns 0x00 (0000ms, 0497ms total)
T2294 001:402 JLINK_WriteReg(R13 (SP), 0x20001000)  returns 0x00 (0000ms, 0497ms total)
T2294 001:402 JLINK_WriteReg(R14, 0x20000001)  returns 0x00 (0000ms, 0497ms total)
T2294 001:402 JLINK_WriteReg(R15 (PC), 0x20000108)  returns 0x00 (0000ms, 0497ms total)
T2294 001:402 JLINK_WriteReg(XPSR, 0x01000000)  returns 0x00 (0000ms, 0497ms total)
T2294 001:402 JLINK_WriteReg(MSP, 0x20001000)  returns 0x00 (0000ms, 0497ms total)
T2294 001:402 JLINK_WriteReg(PSP, 0x20001000)  returns 0x00 (0000ms, 0497ms total)
T2294 001:402 JLINK_WriteReg(CFBP, 0x00000000)  returns 0x00 (0000ms, 0497ms total)
T2294 001:402 JLINK_SetBPEx(Addr = 0x20000000, Type = 0xFFFFFFF2)  returns 0x0000000C (0000ms, 0497ms total)
T2294 001:402 JLINK_Go() -- CPU_ReadMem(4 bytes @ 0xE0001000) (0005ms, 0502ms total)
T2294 001:407 JLINK_IsHalted()  returns FALSE (0001ms, 0503ms total)
T2294 001:415 JLINK_IsHalted() -- CPU_ReadMem(2 bytes @ 0x20000000)  returns TRUE (0006ms, 0508ms total)
T2294 001:421 JLINK_ReadReg(R15 (PC))  returns 0x20000000 (0000ms, 0502ms total)
T2294 001:421 JLINK_ClrBPEx(BPHandle = 0x0000000C)  returns 0x00 (0000ms, 0502ms total)
T2294 001:421 JLINK_ReadReg(R0)  returns 0x00000000 (0000ms, 0502ms total)
T2294 001:421 JLINK_WriteMem(0x20000180, 0x0400 Bytes, ...) - Data: 15 F8 01 0B 90 47 76 1E F8 D2 20 46 FE F7 E6 FF ... -- CPU_WriteMem(1024 bytes @ 0x20000180)  returns 0x400 (0013ms, 0515ms total)
T2294 001:434 JLINK_WriteReg(R0, 0x08001400)  returns 0x00 (0000ms, 0515ms total)
T2294 001:434 JLINK_WriteReg(R1, 0x00000400)  returns 0x00 (0000ms, 0515ms total)
T2294 001:434 JLINK_WriteReg(R2, 0x20000180)  returns 0x00 (0000ms, 0515ms total)
T2294 001:434 JLINK_WriteReg(R3, 0x00000000)  returns 0x00 (0000ms, 0515ms total)
T2294 001:434 JLINK_WriteReg(R4, 0x00000000)  returns 0x00 (0000ms, 0515ms total)
T2294 001:434 JLINK_WriteReg(R5, 0x00000000)  returns 0x00 (0000ms, 0515ms total)
T2294 001:434 JLINK_WriteReg(R6, 0x00000000)  returns 0x00 (0000ms, 0515ms total)
T2294 001:434 JLINK_WriteReg(R7, 0x00000000)  returns 0x00 (0000ms, 0515ms total)
T2294 001:434 JLINK_WriteReg(R8, 0x00000000)  returns 0x00 (0000ms, 0515ms total)
T2294 001:434 JLINK_WriteReg(R9, 0x2000017C)  returns 0x00 (0000ms, 0515ms total)
T2294 001:434 JLINK_WriteReg(R10, 0x00000000)  returns 0x00 (0000ms, 0515ms total)
T2294 001:434 JLINK_WriteReg(R11, 0x00000000)  returns 0x00 (0000ms, 0515ms total)
T2294 001:434 JLINK_WriteReg(R12, 0x00000000)  returns 0x00 (0000ms, 0515ms total)
T2294 001:434 JLINK_WriteReg(R13 (SP), 0x20001000)  returns 0x00 (0000ms, 0515ms total)
T2294 001:434 JLINK_WriteReg(R14, 0x20000001)  returns 0x00 (0000ms, 0515ms total)
T2294 001:434 JLINK_WriteReg(R15 (PC), 0x20000108)  returns 0x00 (0000ms, 0515ms total)
T2294 001:434 JLINK_WriteReg(XPSR, 0x01000000)  returns 0x00 (0000ms, 0515ms total)
T2294 001:434 JLINK_WriteReg(MSP, 0x20001000)  returns 0x00 (0000ms, 0515ms total)
T2294 001:434 JLINK_WriteReg(PSP, 0x20001000)  returns 0x00 (0000ms, 0515ms total)
T2294 001:434 JLINK_WriteReg(CFBP, 0x00000000)  returns 0x00 (0000ms, 0515ms total)
T2294 001:434 JLINK_SetBPEx(Addr = 0x20000000, Type = 0xFFFFFFF2)  returns 0x0000000D (0000ms, 0515ms total)
T2294 001:434 JLINK_Go() -- CPU_ReadMem(4 bytes @ 0xE0001000) (0005ms, 0520ms total)
T2294 001:439 JLINK_IsHalted()  returns FALSE (0001ms, 0521ms total)
T2294 001:444 JLINK_IsHalted() -- CPU_ReadMem(2 bytes @ 0x20000000)  returns TRUE (0005ms, 0525ms total)
T2294 001:449 JLINK_ReadReg(R15 (PC))  returns 0x20000000 (0000ms, 0520ms total)
T2294 001:449 JLINK_ClrBPEx(BPHandle = 0x0000000D)  returns 0x00 (0000ms, 0520ms total)
T2294 001:449 JLINK_ReadReg(R0)  returns 0x00000000 (0000ms, 0520ms total)
T2294 001:449 JLINK_WriteMem(0x20000180, 0x0400 Bytes, ...) - Data: 82 32 42 EA 90 42 4F EA 80 30 4F EA 0C 76 44 F1 ... -- CPU_WriteMem(1024 bytes @ 0x20000180)  returns 0x400 (0013ms, 0533ms total)
T2294 001:462 JLINK_WriteReg(R0, 0x08001800)  returns 0x00 (0000ms, 0533ms total)
T2294 001:462 JLINK_WriteReg(R1, 0x00000400)  returns 0x00 (0000ms, 0533ms total)
T2294 001:462 JLINK_WriteReg(R2, 0x20000180)  returns 0x00 (0000ms, 0533ms total)
T2294 001:462 JLINK_WriteReg(R3, 0x00000000)  returns 0x00 (0000ms, 0533ms total)
T2294 001:462 JLINK_WriteReg(R4, 0x00000000)  returns 0x00 (0000ms, 0533ms total)
T2294 001:462 JLINK_WriteReg(R5, 0x00000000)  returns 0x00 (0000ms, 0533ms total)
T2294 001:462 JLINK_WriteReg(R6, 0x00000000)  returns 0x00 (0000ms, 0533ms total)
T2294 001:462 JLINK_WriteReg(R7, 0x00000000)  returns 0x00 (0000ms, 0533ms total)
T2294 001:462 JLINK_WriteReg(R8, 0x00000000)  returns 0x00 (0000ms, 0533ms total)
T2294 001:462 JLINK_WriteReg(R9, 0x2000017C)  returns 0x00 (0000ms, 0533ms total)
T2294 001:462 JLINK_WriteReg(R10, 0x00000000)  returns 0x00 (0000ms, 0533ms total)
T2294 001:462 JLINK_WriteReg(R11, 0x00000000)  returns 0x00 (0000ms, 0533ms total)
T2294 001:462 JLINK_WriteReg(R12, 0x00000000)  returns 0x00 (0000ms, 0533ms total)
T2294 001:462 JLINK_WriteReg(R13 (SP), 0x20001000)  returns 0x00 (0000ms, 0533ms total)
T2294 001:462 JLINK_WriteReg(R14, 0x20000001)  returns 0x00 (0000ms, 0533ms total)
T2294 001:462 JLINK_WriteReg(R15 (PC), 0x20000108)  returns 0x00 (0000ms, 0533ms total)
